T0B38 18443:327 SEGGER J-Link V6.30h Log File (0000ms, 9054ms total)
T0B38 18443:327 DLL Compiled: Mar 16 2018 18:02:51 (0000ms, 9054ms total)
T0B38 18443:327 Logging started @ 2021-02-14 21:27 (0000ms, 9054ms total)
T0B38 18443:328 JLINK_SetWarnOutHandler(...) (0000ms, 9054ms total)
T0B38 18443:328 JLINK_OpenEx(...)
Firmware: J-Link V9 compiled Dec 13 2019 11:14:50
Hardware: V9.70
S/N: 59701342
Feature(s): RDI, GDB, FlashDL, FlashBP, JFlash
TELNET listener socket opened on port 19021WEBSRV 
Starting webserver (0059ms, 9113ms total)
T0B38 18443:328 WEBSRV Webserver running on local port 19080 (0059ms, 9113ms total)
T0B38 18443:328   returns O.K. (0059ms, 9113ms total)
T0B38 18443:388 JLINK_GetEmuCaps()  returns 0xB9FF7BBF (0000ms, 9113ms total)
T0B38 18443:388 JLINK_TIF_GetAvailable(...) (0000ms, 9113ms total)
T0B38 18443:388 JLINK_SetErrorOutHandler(...) (0000ms, 9113ms total)
T0B38 18443:388 JLINK_ExecCommand("ProjectFile = "D:\code_project\temp\MDK-ARM\JLinkSettings.ini"", ...).   returns 0x00 (0002ms, 9115ms total)
T0B38 18443:390 JLINK_ExecCommand("Device = STM32F103C8", ...). Device "STM32F103C8" selected.  returns 0x00 (0001ms, 9116ms total)
T0B38 18443:391 JLINK_ExecCommand("DisableConnectionTimeout", ...).   returns 0x01 (0000ms, 9116ms total)
T0B38 18443:391 JLINK_GetHardwareVersion()  returns 0x17AE8 (0000ms, 9116ms total)
T0B38 18443:391 JLINK_GetDLLVersion()  returns 63008 (0000ms, 9116ms total)
T0B38 18443:391 JLINK_GetFirmwareString(...) (0000ms, 9116ms total)
T0B38 18443:391 JLINK_GetDLLVersion()  returns 63008 (0000ms, 9116ms total)
T0B38 18443:391 JLINK_GetCompileDateTime() (0000ms, 9116ms total)
T0B38 18443:391 JLINK_GetFirmwareString(...) (0000ms, 9116ms total)
T0B38 18443:391 JLINK_GetHardwareVersion()  returns 0x17AE8 (0000ms, 9116ms total)
T0B38 18443:391 JLINK_TIF_Select(JLINKARM_TIF_SWD)  returns 0x00 (0000ms, 9116ms total)
T0B38 18443:391 JLINK_SetSpeed(50000) (0000ms, 9116ms total)
T0B38 18443:391 JLINK_GetId() >0x10B TIF>Found SW-DP with ID 0x2BA01477 >0x0D TIF> >0x28 TIF> >0x0D TIF> >0x28 TIF> >0x0D TIF> >0x28 TIF> >0x0D TIF> >0x28 TIF> >0x0D TIF> >0x21 TIF> >0x0D TIF> >0x28 TIF> >0x0D TIF> >0x28 TIF> >0x0D TIF> >0x28 TIF> >0x0D TIF> >0x21 TIF> >0x0D TIF> >0x21 TIF> >0x0D TIF> >0x28 TIF> >0x0D TIF> >0x21 TIF> >0x0D TIF> >0x21 TIF> >0x0D TIF> >0x28 TIF> >0x0D TIF> >0x21 TIF> >0x0D TIF> >0x21 TIF> >0x0D TIF> >0x28 TIF> >0x0D TIF> >0x21 TIF> >0x0D TIF> >0x21 TIF> >0x0D TIF>
 >0x28 TIF> >0x0D TIF> >0x21 TIF> >0x0D TIF> >0x21 TIF> >0x0D TIF> >0x28 TIF> >0x0D TIF> >0x21 TIF> >0x0D TIF> >0x21 TIF> >0x0D TIF> >0x28 TIF> >0x0D TIF> >0x21 TIF> >0x0D TIF> >0x21 TIF> >0x10B TIF>Found SW-DP with ID 0x2BA01477 >0x0D TIF> >0x28 TIF> >0x0D TIF> >0x28 TIF> >0x0D TIF> >0x28 TIF> >0x0D TIF> >0x28 TIF> >0x0D TIF> >0x21 TIF> >0x0D TIF> >0x28 TIF>Scanning AP map to find all available APs >0x0D TIF> >0x28 TIF> >0x0D TIF> >0x21 TIF> >0x0D TIF> >0x21 TIF> >0x0D TIF> >0x28 TIF> >0x0D TIF>
 >0x21 TIF> >0x0D TIF> >0x21 TIF>AP[1]: Stopped AP scan as end of AP map has been reachedAP[0]: AHB-AP (IDR: 0x24770011)Iterating through AP map to find AHB-AP to use >0x42 TIF> >0x28 TIF> >0x0D TIF> >0x28 TIF> >0x0D TIF> >0x21 TIF> >0x0D TIF> >0x21 TIF> >0x42 TIF> >0x28 TIF> >0x0D TIF> >0x28 TIF> >0x0D TIF> >0x28 TIF> >0x0D TIF> >0x21 TIF> >0x0D TIF> >0x21 TIF>AP[0]: Core foundAP[0]: AHB-AP ROM base: 0xE00FF000 >0x0D TIF> >0x28 TIF> >0x0D TIF> >0x28 TIF> >0x0D TIF> >0x28 TIF> >0x0D TIF> >0x21 TIF>
 >0x0D TIF> >0x21 TIF>CPUID register: 0x412FC231. Implementer code: 0x41 (ARM)Found Cortex-M3 r2p1, Little endian. -- CPU_ReadMem(4 bytes @ 0xE000EDF0) -- CPU_WriteMem(4 bytes @ 0xE000EDF0) -- CPU_ReadMem(4 bytes @ 0xE0002000)FPUnit: 6 code (BP) slots and 2 literal slots -- CPU_ReadMem(4 bytes @ 0xE000EDFC) -- CPU_WriteMem(4 bytes @ 0xE000EDFC) -- CPU_ReadMem(4 bytes @ 0xE0001000) -- CPU_WriteMem(4 bytes @ 0xE0001000) -- CPU_ReadMem(4 bytes @ 0xE000ED88) -- CPU_WriteMem(4 bytes @ 0xE000ED88)
 -- CPU_ReadMem(4 bytes @ 0xE000ED88) -- CPU_WriteMem(4 bytes @ 0xE000ED88)CoreSight components:ROMTbl[0] @ E00FF000 -- CPU_ReadMem(16 bytes @ 0xE00FF000) -- CPU_ReadMem(16 bytes @ 0xE000EFF0) -- CPU_ReadMem(16 bytes @ 0xE000EFE0)ROMTbl[0][0]: E000E000, CID: B105E00D, PID: 000BB000 SCS -- CPU_ReadMem(16 bytes @ 0xE0001FF0) -- CPU_ReadMem(16 bytes @ 0xE0001FE0)ROMTbl[0][1]: E0001000, CID: B105E00D, PID: 003BB002 DWT -- CPU_ReadMem(16 bytes @ 0xE0002FF0) -- CPU_ReadMem(16 bytes @ 0xE0002FE0)
ROMTbl[0][2]: E0002000, CID: B105E00D, PID: 002BB003 FPB -- CPU_ReadMem(16 bytes @ 0xE0000FF0) -- CPU_ReadMem(16 bytes @ 0xE0000FE0)ROMTbl[0][3]: E0000000, CID: B105E00D, PID: 003BB001 ITM -- CPU_ReadMem(16 bytes @ 0xE00FF010) -- CPU_ReadMem(16 bytes @ 0xE0040FF0) -- CPU_ReadMem(16 bytes @ 0xE0040FE0)ROMTbl[0][4]: E0040000, CID: B105900D, PID: 003BB923 TPIU-Lite >0x0D TIF> >0x21 TIF>  returns 0x2BA01477 (0124ms, 9240ms total)
T0B38 18443:515 JLINK_GetDLLVersion()  returns 63008 (0000ms, 9240ms total)
T0B38 18443:515 JLINK_CORE_GetFound()  returns 0x30000FF (0000ms, 9240ms total)
T0B38 18443:515 JLINK_GetDebugInfo(0x100 = JLINKARM_ROM_TABLE_ADDR_INDEX) -- Value=0xE00FF000  returns 0x00 (0000ms, 9240ms total)
T0B38 18443:515 JLINK_GetDebugInfo(0x100 = JLINKARM_ROM_TABLE_ADDR_INDEX) -- Value=0xE00FF000  returns 0x00 (0000ms, 9240ms total)
T0B38 18443:515 JLINK_GetDebugInfo(0x101 = JLINKARM_DEBUG_INFO_ETM_ADDR_INDEX) -- Value=0x00000000  returns 0x00 (0000ms, 9240ms total)
T0B38 18443:515 JLINK_ReadMemEx(0xE0041FF0, 0x0010 Bytes, ..., Flags = 0x02000004) -- CPU_ReadMem(16 bytes @ 0xE0041FF0) - Data: 00 00 00 00 00 00 00 00 00 00 00 00 00 00 00 00  returns 0x10 (0000ms, 9240ms total)
T0B38 18443:515 JLINK_GetDebugInfo(0x102 = JLINKARM_DEBUG_INFO_MTB_ADDR_INDEX) -- Value=0x00000000  returns 0x00 (0000ms, 9240ms total)
T0B38 18443:515 JLINK_GetDebugInfo(0x103 = JLINKARM_DEBUG_INFO_TPIU_ADDR_INDEX) -- Value=0xE0040000  returns 0x00 (0000ms, 9240ms total)
T0B38 18443:515 JLINK_GetDebugInfo(0x104 = JLINKARM_DEBUG_INFO_ITM_ADDR_INDEX) -- Value=0xE0000000  returns 0x00 (0000ms, 9240ms total)
T0B38 18443:515 JLINK_GetDebugInfo(0x105 = JLINKARM_DEBUG_INFO_DWT_ADDR_INDEX) -- Value=0xE0001000  returns 0x00 (0000ms, 9240ms total)
T0B38 18443:515 JLINK_GetDebugInfo(0x106 = JLINKARM_DEBUG_INFO_FPB_ADDR_INDEX) -- Value=0xE0002000  returns 0x00 (0000ms, 9240ms total)
T0B38 18443:515 JLINK_GetDebugInfo(0x107 = JLINKARM_DEBUG_INFO_NVIC_ADDR_INDEX) -- Value=0xE000E000  returns 0x00 (0000ms, 9240ms total)
T0B38 18443:515 JLINK_GetDebugInfo(0x10C = JLINKARM_DEBUG_INFO_DBG_ADDR_INDEX) -- Value=0xE000EDF0  returns 0x00 (0000ms, 9240ms total)
T0B38 18443:515 JLINK_GetDebugInfo(0x01 = Unknown) -- Value=0x00000000  returns 0x00 (0000ms, 9240ms total)
T0B38 18443:515 JLINK_ReadMemU32(0xE000ED00, 0x0001 Items, ...) -- CPU_ReadMem(4 bytes @ 0xE000ED00) - Data: 31 C2 2F 41  returns 0x01 (0001ms, 9241ms total)
T0B38 18443:516 JLINK_GetDebugInfo(0x10F = JLINKARM_DEBUG_INFO_HAS_CORTEX_M_SECURITY_EXT_INDEX) -- Value=0x00000000  returns 0x00 (0000ms, 9241ms total)
T0B38 18443:516 JLINK_SetResetType(JLINKARM_CM3_RESET_TYPE_NORMAL)  returns JLINKARM_CM3_RESET_TYPE_NORMAL (0000ms, 9241ms total)
T0B38 18443:516 JLINK_Reset() -- CPU is running -- CPU_WriteMem(4 bytes @ 0xE000EDF0) -- CPU is running -- CPU_WriteMem(4 bytes @ 0xE000EDFC)Reset: Halt core after reset via DEMCR.VC_CORERESET. >0x35 TIF>Reset: Reset device via AIRCR.SYSRESETREQ. -- CPU is running -- CPU_WriteMem(4 bytes @ 0xE000ED0C) >0x0D TIF> >0x28 TIF> -- CPU_ReadMem(4 bytes @ 0xE000EDF0) -- CPU_ReadMem(4 bytes @ 0xE000EDF0) -- CPU is running -- CPU_WriteMem(4 bytes @ 0xE000EDF0) -- CPU is running
 -- CPU_WriteMem(4 bytes @ 0xE000EDFC) -- CPU_ReadMem(4 bytes @ 0xE000EDF0) -- CPU_WriteMem(4 bytes @ 0xE0002000) -- CPU_ReadMem(4 bytes @ 0xE000EDFC) -- CPU_ReadMem(4 bytes @ 0xE0001000) (0061ms, 9302ms total)
T0B38 18443:577 JLINK_ReadReg(R15 (PC))  returns 0x08000100 (0000ms, 9302ms total)
T0B38 18443:577 JLINK_ReadReg(XPSR)  returns 0x01000000 (0000ms, 9302ms total)
T0B38 18443:577 JLINK_Halt()  returns 0x00 (0000ms, 9302ms total)
T0B38 18443:577 JLINK_ReadMemU32(0xE000EDF0, 0x0001 Items, ...) -- CPU_ReadMem(4 bytes @ 0xE000EDF0) - Data: 03 00 03 00  returns 0x01 (0000ms, 9302ms total)
T0B38 18443:577 JLINK_WriteU32(0xE000EDF0, 0xA05F0003) -- CPU_WriteMem(4 bytes @ 0xE000EDF0)  returns 0x00 (0001ms, 9303ms total)
T0B38 18443:578 JLINK_WriteU32(0xE000EDFC, 0x01000000) -- CPU_WriteMem(4 bytes @ 0xE000EDFC)  returns 0x00 (0000ms, 9303ms total)
T0B38 18443:578 JLINK_GetHWStatus(...)  returns 0x00 (0000ms, 9303ms total)
T0B38 18443:578 JLINK_GetNumBPUnits(Type = 0xFFFFFF00)  returns 0x06 (0000ms, 9303ms total)
T0B38 18443:578 JLINK_GetNumBPUnits(Type = 0xF0)  returns 0x2000 (0000ms, 9303ms total)
T0B38 18443:578 JLINK_GetNumWPUnits()  returns 0x04 (0000ms, 9303ms total)
T0B38 18443:578 JLINK_GetSpeed()  returns 0x2EE0 (0000ms, 9303ms total)
T0B38 18443:578 JLINK_ReadMemU32(0xE000E004, 0x0001 Items, ...) -- CPU_ReadMem(4 bytes @ 0xE000E004) - Data: 01 00 00 00  returns 0x01 (0000ms, 9303ms total)
T0B38 18443:578 JLINK_ReadMemU32(0xE000E004, 0x0001 Items, ...) -- CPU_ReadMem(4 bytes @ 0xE000E004) - Data: 01 00 00 00  returns 0x01 (0000ms, 9303ms total)
T0B38 18443:578 JLINK_WriteMemEx(0xE0001000, 0x001C Bytes, ..., Flags = 0x02000004) - Data: 01 00 00 00 00 00 00 00 00 00 00 00 00 00 00 00 ... -- CPU_WriteMem(28 bytes @ 0xE0001000)  returns 0x1C (0001ms, 9304ms total)
T0B38 18443:579 JLINK_ReadReg(R15 (PC))  returns 0x08000100 (0000ms, 9304ms total)
T0B38 18443:579 JLINK_ReadReg(XPSR)  returns 0x01000000 (0000ms, 9304ms total)
T0B38 18443:663 JLINK_SetResetType(JLINKARM_CM3_RESET_TYPE_NORMAL)  returns JLINKARM_CM3_RESET_TYPE_NORMAL (0000ms, 9304ms total)
T0B38 18443:663 JLINK_Reset() -- CPU_WriteMem(4 bytes @ 0xE000EDF0) -- CPU_WriteMem(4 bytes @ 0xE000EDFC)Reset: Halt core after reset via DEMCR.VC_CORERESET. >0x35 TIF>Reset: Reset device via AIRCR.SYSRESETREQ. -- CPU_WriteMem(4 bytes @ 0xE000ED0C) >0x0D TIF> >0x28 TIF> -- CPU_ReadMem(4 bytes @ 0xE000EDF0) -- CPU_ReadMem(4 bytes @ 0xE000EDF0) -- CPU_WriteMem(4 bytes @ 0xE000EDF0) -- CPU_WriteMem(4 bytes @ 0xE000EDFC) -- CPU_ReadMem(4 bytes @ 0xE000EDF0) -- CPU_WriteMem(4 bytes @ 0xE0002000)
 -- CPU_ReadMem(4 bytes @ 0xE000EDFC) -- CPU_ReadMem(4 bytes @ 0xE0001000) (0061ms, 9365ms total)
T0B38 18443:724 JLINK_ReadReg(R15 (PC))  returns 0x08000100 (0001ms, 9366ms total)
T0B38 18443:725 JLINK_ReadReg(XPSR)  returns 0x01000000 (0000ms, 9366ms total)
T0B38 18443:725 JLINK_ReadMemEx(0x08000100, 0x003C Bytes, ..., Flags = 0x02000000) -- CPU_ReadMem(64 bytes @ 0x08000100) -- Updating C cache (64 bytes @ 0x08000100) -- Read from C cache (60 bytes @ 0x08000100) - Data: 06 48 80 47 06 48 00 47 FE E7 FE E7 FE E7 FE E7 ...  returns 0x3C (0001ms, 9367ms total)
T0B38 18443:824 JLINK_ReadMemEx(0x40010800, 0x000C Bytes, ..., Flags = 0x02000004) -- CPU_ReadMem(12 bytes @ 0x40010800) - Data: 44 44 44 44 44 44 84 88 00 00 00 00  returns 0x0C (0001ms, 9368ms total)
T0B38 18443:825 JLINK_ReadMemEx(0x40010800, 0x0004 Bytes, ..., Flags = 0x02000004) -- CPU_ReadMem(4 bytes @ 0x40010800) - Data: 44 44 44 44  returns 0x04 (0000ms, 9368ms total)
T0B38 18443:825 JLINK_ReadMemEx(0x40010804, 0x0004 Bytes, ..., Flags = 0x02000004) -- CPU_ReadMem(4 bytes @ 0x40010804) - Data: 44 44 84 88  returns 0x04 (0000ms, 9368ms total)
T0B38 18443:825 JLINK_ReadMemEx(0x40010808, 0x0004 Bytes, ..., Flags = 0x02000004) -- CPU_ReadMem(4 bytes @ 0x40010808) - Data: 00 00 00 00  returns 0x04 (0001ms, 9369ms total)
T0B38 18443:826 JLINK_ReadMemEx(0x4001080C, 0x0004 Bytes, ..., Flags = 0x02000004) -- CPU_ReadMem(4 bytes @ 0x4001080C) - Data: 00 A0 00 00  returns 0x04 (0000ms, 9369ms total)
T0B38 18443:826 JLINK_ReadMemEx(0x4001080C, 0x0004 Bytes, ..., Flags = 0x02000004) -- CPU_ReadMem(4 bytes @ 0x4001080C) - Data: 00 A0 00 00  returns 0x04 (0000ms, 9369ms total)
T0B38 18443:826 JLINK_ReadMemEx(0x40010818, 0x0004 Bytes, ..., Flags = 0x02000004) -- CPU_ReadMem(4 bytes @ 0x40010818) - Data: 00 00 00 00  returns 0x04 (0000ms, 9369ms total)
T0B38 18443:826 JLINK_ReadMemEx(0x40010818, 0x0004 Bytes, ..., Flags = 0x02000004) -- CPU_ReadMem(4 bytes @ 0x40010818) - Data: 00 00 00 00  returns 0x04 (0001ms, 9370ms total)
T0B38 18445:525 JLINK_ReadReg(R0)  returns 0x0000003D (0001ms, 9371ms total)
T0B38 18445:526 JLINK_ReadReg(R1)  returns 0x200007AC (0000ms, 9371ms total)
T0B38 18445:526 JLINK_ReadReg(R2)  returns 0x20000021 (0000ms, 9371ms total)
T0B38 18445:526 JLINK_ReadReg(R3)  returns 0x00000006 (0000ms, 9371ms total)
T0B38 18445:526 JLINK_ReadReg(R4)  returns 0x00000064 (0000ms, 9371ms total)
T0B38 18445:526 JLINK_ReadReg(R5)  returns 0x00000065 (0000ms, 9371ms total)
T0B38 18445:526 JLINK_ReadReg(R6)  returns 0x00000203 (0000ms, 9371ms total)
T0B38 18445:526 JLINK_ReadReg(R7)  returns 0x00000000 (0000ms, 9371ms total)
T0B38 18445:526 JLINK_ReadReg(R8)  returns 0x00000000 (0000ms, 9371ms total)
T0B38 18445:526 JLINK_ReadReg(R9)  returns 0x20000160 (0000ms, 9371ms total)
T0B38 18445:526 JLINK_ReadReg(R10)  returns 0x00000000 (0000ms, 9371ms total)
T0B38 18445:526 JLINK_ReadReg(R11)  returns 0x00000000 (0000ms, 9371ms total)
T0B38 18445:526 JLINK_ReadReg(R12)  returns 0x00000004 (0000ms, 9371ms total)
T0B38 18445:526 JLINK_ReadReg(R13 (SP))  returns 0x20002590 (0000ms, 9371ms total)
T0B38 18445:526 JLINK_ReadReg(R14)  returns 0xFFFFFFFF (0000ms, 9371ms total)
T0B38 18445:526 JLINK_ReadReg(R15 (PC))  returns 0x08000100 (0000ms, 9371ms total)
T0B38 18445:526 JLINK_ReadReg(XPSR)  returns 0x01000000 (0000ms, 9371ms total)
T0B38 18445:526 JLINK_ReadReg(MSP)  returns 0x20002590 (0000ms, 9371ms total)
T0B38 18445:526 JLINK_ReadReg(PSP)  returns 0x20001000 (0000ms, 9371ms total)
T0B38 18445:526 JLINK_ReadReg(CFBP)  returns 0x00000000 (0000ms, 9371ms total)
T3FC8 18445:562 JLINK_ReadMemEx(0x08000100, 0x0002 Bytes, ..., Flags = 0x02000000) -- Read from C cache (2 bytes @ 0x08000100) - Data: 06 48  returns 0x02 (0000ms, 9371ms total)
T3FC8 18445:562 JLINK_SetBPEx(Addr = 0x08005E0C, Type = 0xFFFFFFF2)  returns 0x00000001 (0000ms, 9371ms total)
T3FC8 18445:562 JLINK_SetBPEx(Addr = 0x08003B14, Type = 0xFFFFFFF2)  returns 0x00000002 (0000ms, 9371ms total)
T3FC8 18445:562 JLINK_Go() -- CPU_WriteMem(4 bytes @ 0xE0002000) -- CPU_WriteMem(4 bytes @ 0xE0002000) -- CPU_ReadMem(4 bytes @ 0xE0001000) -- CPU_WriteMem(4 bytes @ 0xE0002008) -- CPU_WriteMem(4 bytes @ 0xE000200C) -- CPU_WriteMem(4 bytes @ 0xE0002010) -- CPU_WriteMem(4 bytes @ 0xE0002014) -- CPU_WriteMem(4 bytes @ 0xE0002018) -- CPU_WriteMem(4 bytes @ 0xE000201C) -- CPU_WriteMem(4 bytes @ 0xE0001004) (0002ms, 9373ms total)
T3FC8 18445:665 JLINK_IsHalted()  returns TRUE (0001ms, 9374ms total)
T3FC8 18445:666 JLINK_Halt()  returns 0x00 (0000ms, 9373ms total)
T3FC8 18445:666 JLINK_IsHalted()  returns TRUE (0000ms, 9373ms total)
T3FC8 18445:666 JLINK_IsHalted()  returns TRUE (0000ms, 9373ms total)
T3FC8 18445:666 JLINK_IsHalted()  returns TRUE (0000ms, 9373ms total)
T3FC8 18445:666 JLINK_ReadReg(R15 (PC))  returns 0x08005E0C (0000ms, 9373ms total)
T3FC8 18445:666 JLINK_ReadReg(XPSR)  returns 0x61000000 (0000ms, 9373ms total)
T3FC8 18445:666 JLINK_ClrBPEx(BPHandle = 0x00000001)  returns 0x00 (0000ms, 9373ms total)
T3FC8 18445:666 JLINK_ClrBPEx(BPHandle = 0x00000002)  returns 0x00 (0000ms, 9373ms total)
T3FC8 18445:666 JLINK_ReadMemU32(0xE000ED30, 0x0001 Items, ...) -- CPU_ReadMem(4 bytes @ 0xE000ED30) - Data: 02 00 00 00  returns 0x01 (0000ms, 9373ms total)
T3FC8 18445:666 JLINK_ReadMemU32(0xE0001028, 0x0001 Items, ...) -- CPU_ReadMem(4 bytes @ 0xE0001028) - Data: 00 00 00 00  returns 0x01 (0001ms, 9374ms total)
T3FC8 18445:667 JLINK_ReadMemU32(0xE0001038, 0x0001 Items, ...) -- CPU_ReadMem(4 bytes @ 0xE0001038) - Data: 00 02 00 00  returns 0x01 (0000ms, 9374ms total)
T3FC8 18445:667 JLINK_ReadMemU32(0xE0001048, 0x0001 Items, ...) -- CPU_ReadMem(4 bytes @ 0xE0001048) - Data: 00 00 00 00  returns 0x01 (0000ms, 9374ms total)
T3FC8 18445:667 JLINK_ReadMemU32(0xE0001058, 0x0001 Items, ...) -- CPU_ReadMem(4 bytes @ 0xE0001058) - Data: 00 00 00 00  returns 0x01 (0000ms, 9374ms total)
T3FC8 18445:667 JLINK_ReadReg(R0)  returns 0x08005E0D (0000ms, 9374ms total)
T3FC8 18445:667 JLINK_ReadReg(R1)  returns 0x20002590 (0001ms, 9375ms total)
T3FC8 18445:668 JLINK_ReadReg(R2)  returns 0x00000000 (0000ms, 9375ms total)
T3FC8 18445:668 JLINK_ReadReg(R3)  returns 0x08005DFD (0000ms, 9375ms total)
T3FC8 18445:668 JLINK_ReadReg(R4)  returns 0x08005FEC (0000ms, 9375ms total)
T3FC8 18445:668 JLINK_ReadReg(R5)  returns 0x08005FEC (0000ms, 9375ms total)
T3FC8 18445:668 JLINK_ReadReg(R6)  returns 0x00000203 (0000ms, 9375ms total)
T3FC8 18445:668 JLINK_ReadReg(R7)  returns 0x00000000 (0000ms, 9375ms total)
T3FC8 18445:668 JLINK_ReadReg(R8)  returns 0x00000000 (0000ms, 9375ms total)
T3FC8 18445:668 JLINK_ReadReg(R9)  returns 0x20000160 (0000ms, 9375ms total)
T3FC8 18445:668 JLINK_ReadReg(R10)  returns 0x00000000 (0000ms, 9375ms total)
T3FC8 18445:668 JLINK_ReadReg(R11)  returns 0x00000000 (0000ms, 9375ms total)
T3FC8 18445:668 JLINK_ReadReg(R12)  returns 0x00000004 (0000ms, 9375ms total)
T3FC8 18445:668 JLINK_ReadReg(R13 (SP))  returns 0x20002590 (0000ms, 9375ms total)
T3FC8 18445:668 JLINK_ReadReg(R14)  returns 0x08000189 (0000ms, 9375ms total)
T3FC8 18445:668 JLINK_ReadReg(R15 (PC))  returns 0x08005E0C (0000ms, 9375ms total)
T3FC8 18445:668 JLINK_ReadReg(XPSR)  returns 0x61000000 (0000ms, 9375ms total)
T3FC8 18445:668 JLINK_ReadReg(MSP)  returns 0x20002590 (0000ms, 9375ms total)
T3FC8 18445:668 JLINK_ReadReg(PSP)  returns 0x20001000 (0000ms, 9375ms total)
T3FC8 18445:668 JLINK_ReadReg(CFBP)  returns 0x00000000 (0000ms, 9375ms total)
T0B38 18445:669 JLINK_ReadMemEx(0x20000027, 0x0001 Bytes, ..., Flags = 0x02000000) -- CPU_ReadMem(64 bytes @ 0x20000000) -- Updating C cache (64 bytes @ 0x20000000) -- Read from C cache (1 bytes @ 0x20000027) - Data: 00  returns 0x01 (0000ms, 9375ms total)
T0B38 18445:669 JLINK_ReadMemEx(0x20000028, 0x0001 Bytes, ..., Flags = 0x02000000) -- Read from C cache (1 bytes @ 0x20000028) - Data: 00  returns 0x01 (0000ms, 9375ms total)
T0B38 18445:669 JLINK_ReadMemEx(0x20000021, 0x0006 Bytes, ..., Flags = 0x02000000) -- Read from C cache (6 bytes @ 0x20000021) - Data: 68 65 6C 6C 6F 00  returns 0x06 (0000ms, 9375ms total)
T0B38 18445:669 JLINK_ReadMemEx(0x00000000, 0x0001 Bytes, ..., Flags = 0x02000000) -- CPU_ReadMem(4 bytes @ 0x00000004) -- CPU_ReadMem(64 bytes @ 0x08000000) -- Updating C cache (64 bytes @ 0x08000000) -- Read from C cache (1 bytes @ 0x08000000) - Data: 90  returns 0x01 (0001ms, 9376ms total)
T0B38 18445:670 JLINK_ReadMemEx(0x00000000, 0x0004 Bytes, ..., Flags = 0x02000000) -- Read from C cache (4 bytes @ 0x08000000) - Data: 90 25 00 20  returns 0x04 (0000ms, 9376ms total)
T0B38 18445:675 JLINK_ReadMemEx(0x40010800, 0x000C Bytes, ..., Flags = 0x02000004) -- CPU_ReadMem(12 bytes @ 0x40010800) - Data: 44 44 44 44 44 44 84 88 00 00 00 00  returns 0x0C (0000ms, 9376ms total)
T0B38 18445:675 JLINK_ReadMemEx(0x40010800, 0x0004 Bytes, ..., Flags = 0x02000004) -- CPU_ReadMem(4 bytes @ 0x40010800) - Data: 44 44 44 44  returns 0x04 (0001ms, 9377ms total)
T0B38 18445:676 JLINK_ReadMemEx(0x40010804, 0x0004 Bytes, ..., Flags = 0x02000004) -- CPU_ReadMem(4 bytes @ 0x40010804) - Data: 44 44 84 88  returns 0x04 (0000ms, 9377ms total)
T0B38 18445:676 JLINK_ReadMemEx(0x40010808, 0x0004 Bytes, ..., Flags = 0x02000004) -- CPU_ReadMem(4 bytes @ 0x40010808) - Data: 00 00 00 00  returns 0x04 (0000ms, 9377ms total)
T0B38 18445:676 JLINK_ReadMemEx(0x4001080C, 0x0004 Bytes, ..., Flags = 0x02000004) -- CPU_ReadMem(4 bytes @ 0x4001080C) - Data: 00 A0 00 00  returns 0x04 (0000ms, 9377ms total)
T0B38 18445:676 JLINK_ReadMemEx(0x4001080C, 0x0004 Bytes, ..., Flags = 0x02000004) -- CPU_ReadMem(4 bytes @ 0x4001080C) - Data: 00 A0 00 00  returns 0x04 (0001ms, 9378ms total)
T0B38 18445:677 JLINK_ReadMemEx(0x40010818, 0x0004 Bytes, ..., Flags = 0x02000004) -- CPU_ReadMem(4 bytes @ 0x40010818) - Data: 00 00 00 00  returns 0x04 (0000ms, 9378ms total)
T0B38 18445:677 JLINK_ReadMemEx(0x40010818, 0x0004 Bytes, ..., Flags = 0x02000004) -- CPU_ReadMem(4 bytes @ 0x40010818) - Data: 00 00 00 00  returns 0x04 (0000ms, 9378ms total)
T3FC8 18448:538 JLINK_ReadMemEx(0x08005E0C, 0x0002 Bytes, ..., Flags = 0x02000000) -- CPU_ReadMem(64 bytes @ 0x08005E00) -- Updating C cache (64 bytes @ 0x08005E00) -- Read from C cache (2 bytes @ 0x08005E0C) - Data: 00 25  returns 0x02 (0000ms, 9378ms total)
T3FC8 18448:538 JLINK_SetBPEx(Addr = 0x08003B14, Type = 0xFFFFFFF2)  returns 0x00000003 (0000ms, 9378ms total)
T3FC8 18448:538 JLINK_SetBPEx(Addr = 0x0800288A, Type = 0xFFFFFFF2)  returns 0x00000004 (0000ms, 9378ms total)
T3FC8 18448:538 JLINK_Go() -- CPU_WriteMem(4 bytes @ 0xE0002000) -- CPU_WriteMem(4 bytes @ 0xE0002000) -- CPU_ReadMem(4 bytes @ 0xE0001000) -- CPU_WriteMem(4 bytes @ 0xE0002008) -- CPU_WriteMem(4 bytes @ 0xE000200C) (0002ms, 9380ms total)
T3FC8 18448:640 JLINK_IsHalted()  returns TRUE (0001ms, 9381ms total)
T3FC8 18448:641 JLINK_Halt()  returns 0x00 (0000ms, 9380ms total)
T3FC8 18448:641 JLINK_IsHalted()  returns TRUE (0000ms, 9380ms total)
T3FC8 18448:641 JLINK_IsHalted()  returns TRUE (0000ms, 9380ms total)
T3FC8 18448:641 JLINK_IsHalted()  returns TRUE (0000ms, 9380ms total)
T3FC8 18448:641 JLINK_ReadReg(R15 (PC))  returns 0x0800288A (0000ms, 9380ms total)
T3FC8 18448:641 JLINK_ReadReg(XPSR)  returns 0x21000000 (0000ms, 9380ms total)
T3FC8 18448:641 JLINK_ClrBPEx(BPHandle = 0x00000003)  returns 0x00 (0000ms, 9380ms total)
T3FC8 18448:641 JLINK_ClrBPEx(BPHandle = 0x00000004)  returns 0x00 (0000ms, 9380ms total)
T3FC8 18448:641 JLINK_ReadMemU32(0xE000ED30, 0x0001 Items, ...) -- CPU_ReadMem(4 bytes @ 0xE000ED30) - Data: 02 00 00 00  returns 0x01 (0001ms, 9381ms total)
T3FC8 18448:642 JLINK_ReadMemU32(0xE0001028, 0x0001 Items, ...) -- CPU_ReadMem(4 bytes @ 0xE0001028) - Data: 00 00 00 00  returns 0x01 (0000ms, 9381ms total)
T3FC8 18448:642 JLINK_ReadMemU32(0xE0001038, 0x0001 Items, ...) -- CPU_ReadMem(4 bytes @ 0xE0001038) - Data: 00 02 00 00  returns 0x01 (0000ms, 9381ms total)
T3FC8 18448:642 JLINK_ReadMemU32(0xE0001048, 0x0001 Items, ...) -- CPU_ReadMem(4 bytes @ 0xE0001048) - Data: 00 00 00 00  returns 0x01 (0001ms, 9382ms total)
T3FC8 18448:643 JLINK_ReadMemU32(0xE0001058, 0x0001 Items, ...) -- CPU_ReadMem(4 bytes @ 0xE0001058) - Data: 00 00 00 00  returns 0x01 (0000ms, 9382ms total)
T3FC8 18448:643 JLINK_ReadReg(R0)  returns 0x200007AC (0000ms, 9382ms total)
T3FC8 18448:643 JLINK_ReadReg(R1)  returns 0x20000021 (0000ms, 9382ms total)
T3FC8 18448:643 JLINK_ReadReg(R2)  returns 0x00000006 (0000ms, 9382ms total)
T3FC8 18448:643 JLINK_ReadReg(R3)  returns 0x00000080 (0000ms, 9382ms total)
T3FC8 18448:643 JLINK_ReadReg(R4)  returns 0x200007AC (0000ms, 9382ms total)
T3FC8 18448:643 JLINK_ReadReg(R5)  returns 0x00000006 (0000ms, 9382ms total)
T3FC8 18448:643 JLINK_ReadReg(R6)  returns 0x00000203 (0000ms, 9382ms total)
T3FC8 18448:643 JLINK_ReadReg(R7)  returns 0x00000000 (0000ms, 9382ms total)
T3FC8 18448:643 JLINK_ReadReg(R8)  returns 0x00000000 (0000ms, 9382ms total)
T3FC8 18448:643 JLINK_ReadReg(R9)  returns 0x20000160 (0000ms, 9382ms total)
T3FC8 18448:643 JLINK_ReadReg(R10)  returns 0x00000000 (0000ms, 9382ms total)
T3FC8 18448:643 JLINK_ReadReg(R11)  returns 0x00000000 (0000ms, 9382ms total)
T3FC8 18448:643 JLINK_ReadReg(R12)  returns 0x00000004 (0000ms, 9382ms total)
T3FC8 18448:643 JLINK_ReadReg(R13 (SP))  returns 0x20002570 (0000ms, 9382ms total)
T3FC8 18448:643 JLINK_ReadReg(R14)  returns 0x08005F6B (0000ms, 9382ms total)
T3FC8 18448:643 JLINK_ReadReg(R15 (PC))  returns 0x0800288A (0000ms, 9382ms total)
T3FC8 18448:643 JLINK_ReadReg(XPSR)  returns 0x21000000 (0000ms, 9382ms total)
T3FC8 18448:643 JLINK_ReadReg(MSP)  returns 0x20002570 (0000ms, 9382ms total)
T3FC8 18448:643 JLINK_ReadReg(PSP)  returns 0x20001000 (0000ms, 9382ms total)
T3FC8 18448:643 JLINK_ReadReg(CFBP)  returns 0x00000000 (0000ms, 9382ms total)
T0B38 18448:643 JLINK_ReadMemEx(0x2000258C, 0x0004 Bytes, ..., Flags = 0x02000000) -- CPU_ReadMem(64 bytes @ 0x20002580) -- Updating C cache (64 bytes @ 0x20002580) -- Read from C cache (4 bytes @ 0x2000258C) - Data: 6B 5F 00 08  returns 0x04 (0001ms, 9383ms total)
T0B38 18448:644 JLINK_ReadMemEx(0x2000257C, 0x0004 Bytes, ..., Flags = 0x02000000) -- CPU_ReadMem(64 bytes @ 0x20002540) -- Updating C cache (64 bytes @ 0x20002540) -- Read from C cache (4 bytes @ 0x2000257C) - Data: EC 5F 00 08  returns 0x04 (0000ms, 9383ms total)
T0B38 18448:644 JLINK_ReadMemEx(0x20002580, 0x0004 Bytes, ..., Flags = 0x02000000) -- Read from C cache (4 bytes @ 0x20002580) - Data: 00 00 00 00  returns 0x04 (0000ms, 9383ms total)
T0B38 18448:644 JLINK_ReadMemEx(0x20002584, 0x0004 Bytes, ..., Flags = 0x02000000) -- Read from C cache (4 bytes @ 0x20002584) - Data: 03 02 00 00  returns 0x04 (0000ms, 9383ms total)
T0B38 18448:644 JLINK_ReadMemEx(0x20002588, 0x0004 Bytes, ..., Flags = 0x02000000) -- Read from C cache (4 bytes @ 0x20002588) - Data: 00 00 00 00  returns 0x04 (0000ms, 9383ms total)
T0B38 18448:644 JLINK_ReadMemEx(0x20002574, 0x0004 Bytes, ..., Flags = 0x02000000) -- Read from C cache (4 bytes @ 0x20002574) - Data: 21 00 00 20  returns 0x04 (0000ms, 9383ms total)
T0B38 18448:644 JLINK_ReadMemEx(0x20000021, 0x0020 Bytes, ..., Flags = 0x02000000) -- CPU_ReadMem(128 bytes @ 0x20000000) -- Updating C cache (128 bytes @ 0x20000000) -- Read from C cache (32 bytes @ 0x20000021) - Data: 68 65 6C 6C 6F 00 00 00 00 00 00 99 02 00 08 95 ...  returns 0x20 (0001ms, 9384ms total)
T0B38 18448:645 JLINK_ReadMemEx(0x00000000, 0x0004 Bytes, ..., Flags = 0x02000000) -- CPU_ReadMem(4 bytes @ 0x00000004) -- CPU_ReadMem(64 bytes @ 0x08000000) -- Updating C cache (64 bytes @ 0x08000000) -- Read from C cache (4 bytes @ 0x08000000) - Data: 90 25 00 20  returns 0x04 (0001ms, 9385ms total)
T0B38 18448:652 JLINK_ReadMemEx(0x40010800, 0x000C Bytes, ..., Flags = 0x02000004) -- CPU_ReadMem(12 bytes @ 0x40010800) - Data: 24 4B 42 44 B4 44 84 88 AC D7 00 00  returns 0x0C (0000ms, 9385ms total)
T0B38 18448:652 JLINK_ReadMemEx(0x40010800, 0x0004 Bytes, ..., Flags = 0x02000004) -- CPU_ReadMem(4 bytes @ 0x40010800) - Data: 24 4B 42 44  returns 0x04 (0000ms, 9385ms total)
T0B38 18448:652 JLINK_ReadMemEx(0x40010804, 0x0004 Bytes, ..., Flags = 0x02000004) -- CPU_ReadMem(4 bytes @ 0x40010804) - Data: B4 44 84 88  returns 0x04 (0000ms, 9385ms total)
T0B38 18448:652 JLINK_ReadMemEx(0x40010808, 0x0004 Bytes, ..., Flags = 0x02000004) -- CPU_ReadMem(4 bytes @ 0x40010808) - Data: AC D7 00 00  returns 0x04 (0001ms, 9386ms total)
T0B38 18448:653 JLINK_ReadMemEx(0x4001080C, 0x0004 Bytes, ..., Flags = 0x02000004) -- CPU_ReadMem(4 bytes @ 0x4001080C) - Data: 00 A0 00 00  returns 0x04 (0000ms, 9386ms total)
T0B38 18448:653 JLINK_ReadMemEx(0x4001080C, 0x0004 Bytes, ..., Flags = 0x02000004) -- CPU_ReadMem(4 bytes @ 0x4001080C) - Data: 00 A0 00 00  returns 0x04 (0000ms, 9386ms total)
T0B38 18448:653 JLINK_ReadMemEx(0x40010818, 0x0004 Bytes, ..., Flags = 0x02000004) -- CPU_ReadMem(4 bytes @ 0x40010818) - Data: 00 00 00 00  returns 0x04 (0000ms, 9386ms total)
T0B38 18448:653 JLINK_ReadMemEx(0x40010818, 0x0004 Bytes, ..., Flags = 0x02000004) -- CPU_ReadMem(4 bytes @ 0x40010818) - Data: 00 00 00 00  returns 0x04 (0001ms, 9387ms total)
T0B38 18448:662 JLINK_ReadMemEx(0x0800288A, 0x0002 Bytes, ..., Flags = 0x02000000) -- CPU_ReadMem(64 bytes @ 0x08002880) -- Updating C cache (64 bytes @ 0x08002880) -- Read from C cache (2 bytes @ 0x0800288A) - Data: 94 F8  returns 0x02 (0000ms, 9387ms total)
T0B38 18448:662 JLINK_ReadMemEx(0x0800288C, 0x003C Bytes, ..., Flags = 0x02000000) -- CPU_ReadMem(64 bytes @ 0x080028C0) -- Updating C cache (64 bytes @ 0x080028C0) -- Read from C cache (60 bytes @ 0x0800288C) - Data: 39 00 20 28 3D D1 01 98 00 B1 0D B9 01 20 FE BD ...  returns 0x3C (0001ms, 9388ms total)
T0B38 18450:264 JLINK_ReadMemEx(0x200007E5, 0x0001 Bytes, ..., Flags = 0x02000000) -- CPU_ReadMem(64 bytes @ 0x200007C0) -- Updating C cache (64 bytes @ 0x200007C0) -- Read from C cache (1 bytes @ 0x200007E5) - Data: 20  returns 0x01 (0000ms, 9388ms total)
T3FC8 18451:559 JLINK_ReadMemEx(0x0800288A, 0x0002 Bytes, ..., Flags = 0x02000000) -- Read from C cache (2 bytes @ 0x0800288A) - Data: 94 F8  returns 0x02 (0000ms, 9388ms total)
T3FC8 18451:559 JLINK_Step() -- Read from C cache (2 bytes @ 0x0800288A) -- CPU_ReadMem(4 bytes @ 0xE000ED18) -- CPU_WriteMem(4 bytes @ 0xE000ED18) -- CPU_ReadMem(4 bytes @ 0xE000ED18) -- CPU_WriteMem(4 bytes @ 0xE000ED18) -- CPU_ReadMem(4 bytes @ 0xE0001004) -- Read from C cache (2 bytes @ 0x0800288C) -- Not simulated -- CPU_WriteMem(4 bytes @ 0xE0002008) -- CPU_WriteMem(4 bytes @ 0xE000200C)  returns 0x00 (0004ms, 9392ms total)
T3FC8 18451:563 JLINK_ReadReg(R15 (PC))  returns 0x0800288E (0000ms, 9392ms total)
T3FC8 18451:563 JLINK_ReadReg(XPSR)  returns 0x21000000 (0000ms, 9392ms total)
T3FC8 18451:563 JLINK_ReadMemEx(0x0800288C, 0x003C Bytes, ..., Flags = 0x02000000) -- CPU_ReadMem(128 bytes @ 0x08002880) -- Updating C cache (128 bytes @ 0x08002880) -- Read from C cache (60 bytes @ 0x0800288C) - Data: 39 00 20 28 3D D1 01 98 00 B1 0D B9 01 20 FE BD ...  returns 0x3C (0002ms, 9394ms total)
T3FC8 18451:565 JLINK_ReadMemEx(0x0800288C, 0x0002 Bytes, ..., Flags = 0x02000000) -- Read from C cache (2 bytes @ 0x0800288C) - Data: 39 00  returns 0x02 (0000ms, 9394ms total)
T3FC8 18451:565 JLINK_ReadMemEx(0x0800288E, 0x0002 Bytes, ..., Flags = 0x02000000) -- Read from C cache (2 bytes @ 0x0800288E) - Data: 20 28  returns 0x02 (0000ms, 9394ms total)
T3FC8 18451:565 JLINK_ReadMemEx(0x0800288E, 0x0002 Bytes, ..., Flags = 0x02000000) -- Read from C cache (2 bytes @ 0x0800288E) - Data: 20 28  returns 0x02 (0000ms, 9394ms total)
T3FC8 18451:565 JLINK_ReadMemEx(0x08002890, 0x003C Bytes, ..., Flags = 0x02000000) -- Read from C cache (60 bytes @ 0x08002890) - Data: 3D D1 01 98 00 B1 0D B9 01 20 FE BD 00 BF 94 F8 ...  returns 0x3C (0000ms, 9394ms total)
T3FC8 18451:565 JLINK_ReadMemEx(0x08002890, 0x0002 Bytes, ..., Flags = 0x02000000) -- Read from C cache (2 bytes @ 0x08002890) - Data: 3D D1  returns 0x02 (0000ms, 9394ms total)
T3FC8 18451:565 JLINK_Step() -- Read from C cache (2 bytes @ 0x0800288E) -- CPU_ReadMem(4 bytes @ 0xE0001004) -- Simulated  returns 0x00 (0000ms, 9394ms total)
T3FC8 18451:565 JLINK_ReadReg(R15 (PC))  returns 0x08002890 (0000ms, 9394ms total)
T3FC8 18451:565 JLINK_ReadReg(XPSR)  returns 0x61000000 (0000ms, 9394ms total)
T3FC8 18451:565 JLINK_ReadMemEx(0x08002890, 0x003C Bytes, ..., Flags = 0x02000000) -- Read from C cache (60 bytes @ 0x08002890) - Data: 3D D1 01 98 00 B1 0D B9 01 20 FE BD 00 BF 94 F8 ...  returns 0x3C (0000ms, 9394ms total)
T3FC8 18451:565 JLINK_ReadMemEx(0x08002890, 0x0002 Bytes, ..., Flags = 0x02000000) -- Read from C cache (2 bytes @ 0x08002890) - Data: 3D D1  returns 0x02 (0000ms, 9394ms total)
T3FC8 18451:565 JLINK_ReadMemEx(0x08002892, 0x0002 Bytes, ..., Flags = 0x02000000) -- Read from C cache (2 bytes @ 0x08002892) - Data: 01 98  returns 0x02 (0000ms, 9394ms total)
T3FC8 18451:565 JLINK_Step() -- Read from C cache (2 bytes @ 0x08002890) -- Simulated  returns 0x00 (0000ms, 9394ms total)
T3FC8 18451:565 JLINK_ReadReg(R15 (PC))  returns 0x08002892 (0000ms, 9394ms total)
T3FC8 18451:566 JLINK_ReadReg(XPSR)  returns 0x61000000 (0000ms, 9395ms total)
T3FC8 18451:566 JLINK_ReadReg(R0)  returns 0x00000020 (0000ms, 9395ms total)
T3FC8 18451:566 JLINK_ReadReg(R1)  returns 0x20000021 (0000ms, 9395ms total)
T3FC8 18451:566 JLINK_ReadReg(R2)  returns 0x00000006 (0000ms, 9395ms total)
T3FC8 18451:566 JLINK_ReadReg(R3)  returns 0x00000080 (0000ms, 9395ms total)
T3FC8 18451:566 JLINK_ReadReg(R4)  returns 0x200007AC (0000ms, 9395ms total)
T3FC8 18451:566 JLINK_ReadReg(R5)  returns 0x00000006 (0000ms, 9395ms total)
T3FC8 18451:566 JLINK_ReadReg(R6)  returns 0x00000203 (0000ms, 9395ms total)
T3FC8 18451:566 JLINK_ReadReg(R7)  returns 0x00000000 (0000ms, 9395ms total)
T3FC8 18451:566 JLINK_ReadReg(R8)  returns 0x00000000 (0000ms, 9395ms total)
T3FC8 18451:566 JLINK_ReadReg(R9)  returns 0x20000160 (0000ms, 9395ms total)
T3FC8 18451:566 JLINK_ReadReg(R10)  returns 0x00000000 (0000ms, 9395ms total)
T3FC8 18451:566 JLINK_ReadReg(R11)  returns 0x00000000 (0000ms, 9395ms total)
T3FC8 18451:566 JLINK_ReadReg(R12)  returns 0x00000004 (0000ms, 9395ms total)
T3FC8 18451:566 JLINK_ReadReg(R13 (SP))  returns 0x20002570 (0000ms, 9395ms total)
T3FC8 18451:566 JLINK_ReadReg(R14)  returns 0x08005F6B (0000ms, 9395ms total)
T3FC8 18451:566 JLINK_ReadReg(R15 (PC))  returns 0x08002892 (0000ms, 9395ms total)
T3FC8 18451:566 JLINK_ReadReg(XPSR)  returns 0x61000000 (0000ms, 9395ms total)
T3FC8 18451:566 JLINK_ReadReg(MSP)  returns 0x20002570 (0000ms, 9395ms total)
T3FC8 18451:566 JLINK_ReadReg(PSP)  returns 0x20001000 (0000ms, 9395ms total)
T3FC8 18451:566 JLINK_ReadReg(CFBP)  returns 0x00000000 (0000ms, 9395ms total)
T0B38 18451:566 JLINK_ReadMemEx(0x2000258C, 0x0004 Bytes, ..., Flags = 0x02000000) -- CPU_ReadMem(64 bytes @ 0x20002580) -- Updating C cache (64 bytes @ 0x20002580) -- Read from C cache (4 bytes @ 0x2000258C) - Data: 6B 5F 00 08  returns 0x04 (0001ms, 9396ms total)
T0B38 18451:567 JLINK_ReadMemEx(0x2000257C, 0x0004 Bytes, ..., Flags = 0x02000000) -- CPU_ReadMem(64 bytes @ 0x20002540) -- Updating C cache (64 bytes @ 0x20002540) -- Read from C cache (4 bytes @ 0x2000257C) - Data: EC 5F 00 08  returns 0x04 (0000ms, 9396ms total)
T0B38 18451:567 JLINK_ReadMemEx(0x20002580, 0x0004 Bytes, ..., Flags = 0x02000000) -- Read from C cache (4 bytes @ 0x20002580) - Data: 00 00 00 00  returns 0x04 (0000ms, 9396ms total)
T0B38 18451:567 JLINK_ReadMemEx(0x20002584, 0x0004 Bytes, ..., Flags = 0x02000000) -- Read from C cache (4 bytes @ 0x20002584) - Data: 03 02 00 00  returns 0x04 (0000ms, 9396ms total)
T0B38 18451:567 JLINK_ReadMemEx(0x20002588, 0x0004 Bytes, ..., Flags = 0x02000000) -- Read from C cache (4 bytes @ 0x20002588) - Data: 00 00 00 00  returns 0x04 (0000ms, 9396ms total)
T0B38 18451:567 JLINK_ReadMemEx(0x20002574, 0x0004 Bytes, ..., Flags = 0x02000000) -- Read from C cache (4 bytes @ 0x20002574) - Data: 21 00 00 20  returns 0x04 (0000ms, 9396ms total)
T0B38 18451:567 JLINK_ReadMemEx(0x20000021, 0x0020 Bytes, ..., Flags = 0x02000000) -- CPU_ReadMem(128 bytes @ 0x20000000) -- Updating C cache (128 bytes @ 0x20000000) -- Read from C cache (32 bytes @ 0x20000021) - Data: 68 65 6C 6C 6F 00 00 00 00 00 00 99 02 00 08 95 ...  returns 0x20 (0001ms, 9397ms total)
T0B38 18451:568 JLINK_ReadMemEx(0x00000000, 0x0004 Bytes, ..., Flags = 0x02000000) -- CPU_ReadMem(4 bytes @ 0x00000004) -- CPU_ReadMem(64 bytes @ 0x08000000) -- Updating C cache (64 bytes @ 0x08000000) -- Read from C cache (4 bytes @ 0x08000000) - Data: 90 25 00 20  returns 0x04 (0001ms, 9398ms total)
T0B38 18451:569 JLINK_ReadMemEx(0x40010800, 0x000C Bytes, ..., Flags = 0x02000004) -- CPU_ReadMem(12 bytes @ 0x40010800) - Data: 24 4B 42 44 B4 44 84 88 AC D7 00 00  returns 0x0C (0000ms, 9398ms total)
T0B38 18451:569 JLINK_ReadMemEx(0x40010800, 0x0004 Bytes, ..., Flags = 0x02000004) -- CPU_ReadMem(4 bytes @ 0x40010800) - Data: 24 4B 42 44  returns 0x04 (0000ms, 9398ms total)
T0B38 18451:569 JLINK_ReadMemEx(0x40010804, 0x0004 Bytes, ..., Flags = 0x02000004) -- CPU_ReadMem(4 bytes @ 0x40010804) - Data: B4 44 84 88  returns 0x04 (0000ms, 9398ms total)
T0B38 18451:569 JLINK_ReadMemEx(0x40010808, 0x0004 Bytes, ..., Flags = 0x02000004) -- CPU_ReadMem(4 bytes @ 0x40010808) - Data: AC D7 00 00  returns 0x04 (0001ms, 9399ms total)
T0B38 18451:570 JLINK_ReadMemEx(0x4001080C, 0x0004 Bytes, ..., Flags = 0x02000004) -- CPU_ReadMem(4 bytes @ 0x4001080C) - Data: 00 A0 00 00  returns 0x04 (0000ms, 9399ms total)
T0B38 18451:570 JLINK_ReadMemEx(0x4001080C, 0x0004 Bytes, ..., Flags = 0x02000004) -- CPU_ReadMem(4 bytes @ 0x4001080C) - Data: 00 A0 00 00  returns 0x04 (0000ms, 9399ms total)
T0B38 18451:570 JLINK_ReadMemEx(0x40010818, 0x0004 Bytes, ..., Flags = 0x02000004) -- CPU_ReadMem(4 bytes @ 0x40010818) - Data: 00 00 00 00  returns 0x04 (0000ms, 9399ms total)
T0B38 18451:570 JLINK_ReadMemEx(0x40010818, 0x0004 Bytes, ..., Flags = 0x02000004) -- CPU_ReadMem(4 bytes @ 0x40010818) - Data: 00 00 00 00  returns 0x04 (0001ms, 9400ms total)
T0B38 18451:571 JLINK_ReadMemEx(0x08002892, 0x0002 Bytes, ..., Flags = 0x02000000) -- Read from C cache (2 bytes @ 0x08002892) - Data: 01 98  returns 0x02 (0000ms, 9400ms total)
T0B38 18451:571 JLINK_ReadMemEx(0x08002894, 0x003C Bytes, ..., Flags = 0x02000000) -- Read from C cache (60 bytes @ 0x08002894) - Data: 00 B1 0D B9 01 20 FE BD 00 BF 94 F8 38 00 01 28 ...  returns 0x3C (0000ms, 9400ms total)
T3FC8 18452:295 JLINK_ReadMemEx(0x08002892, 0x0002 Bytes, ..., Flags = 0x02000000) -- Read from C cache (2 bytes @ 0x08002892) - Data: 01 98  returns 0x02 (0000ms, 9400ms total)
T3FC8 18452:295 JLINK_Step() -- Read from C cache (2 bytes @ 0x08002892) -- Read from C cache (4 bytes @ 0x20002574) -- Simulated  returns 0x00 (0000ms, 9400ms total)
T3FC8 18452:295 JLINK_ReadReg(R15 (PC))  returns 0x08002894 (0000ms, 9400ms total)
T3FC8 18452:295 JLINK_ReadReg(XPSR)  returns 0x61000000 (0000ms, 9400ms total)
T3FC8 18452:295 JLINK_ReadMemEx(0x08002894, 0x003C Bytes, ..., Flags = 0x02000000) -- Read from C cache (60 bytes @ 0x08002894) - Data: 00 B1 0D B9 01 20 FE BD 00 BF 94 F8 38 00 01 28 ...  returns 0x3C (0000ms, 9400ms total)
T3FC8 18452:295 JLINK_ReadMemEx(0x08002894, 0x0002 Bytes, ..., Flags = 0x02000000) -- Read from C cache (2 bytes @ 0x08002894) - Data: 00 B1  returns 0x02 (0000ms, 9400ms total)
T3FC8 18452:295 JLINK_ReadMemEx(0x08002896, 0x0002 Bytes, ..., Flags = 0x02000000) -- Read from C cache (2 bytes @ 0x08002896) - Data: 0D B9  returns 0x02 (0000ms, 9400ms total)
T3FC8 18452:295 JLINK_Step() -- Read from C cache (2 bytes @ 0x08002894) -- Simulated  returns 0x00 (0000ms, 9400ms total)
T3FC8 18452:295 JLINK_ReadReg(R15 (PC))  returns 0x08002896 (0000ms, 9400ms total)
T3FC8 18452:295 JLINK_ReadReg(XPSR)  returns 0x61000000 (0000ms, 9400ms total)
T3FC8 18452:295 JLINK_ReadMemEx(0x08002896, 0x0002 Bytes, ..., Flags = 0x02000000) -- Read from C cache (2 bytes @ 0x08002896) - Data: 0D B9  returns 0x02 (0000ms, 9400ms total)
T3FC8 18452:296 JLINK_ReadMemEx(0x08002898, 0x003C Bytes, ..., Flags = 0x02000000) -- Read from C cache (60 bytes @ 0x08002898) - Data: 01 20 FE BD 00 BF 94 F8 38 00 01 28 01 D1 02 20 ...  returns 0x3C (0000ms, 9401ms total)
T3FC8 18452:296 JLINK_ReadMemEx(0x08002898, 0x0002 Bytes, ..., Flags = 0x02000000) -- Read from C cache (2 bytes @ 0x08002898) - Data: 01 20  returns 0x02 (0000ms, 9401ms total)
T3FC8 18452:296 JLINK_Step() -- Read from C cache (2 bytes @ 0x08002896) -- Simulated  returns 0x00 (0000ms, 9401ms total)
T3FC8 18452:296 JLINK_ReadReg(R15 (PC))  returns 0x0800289C (0000ms, 9401ms total)
T3FC8 18452:296 JLINK_ReadReg(XPSR)  returns 0x61000000 (0000ms, 9401ms total)
T3FC8 18452:296 JLINK_ReadReg(R0)  returns 0x20000021 (0000ms, 9401ms total)
T3FC8 18452:296 JLINK_ReadReg(R1)  returns 0x20000021 (0000ms, 9401ms total)
T3FC8 18452:296 JLINK_ReadReg(R2)  returns 0x00000006 (0000ms, 9401ms total)
T3FC8 18452:296 JLINK_ReadReg(R3)  returns 0x00000080 (0000ms, 9401ms total)
T3FC8 18452:296 JLINK_ReadReg(R4)  returns 0x200007AC (0000ms, 9401ms total)
T3FC8 18452:296 JLINK_ReadReg(R5)  returns 0x00000006 (0000ms, 9401ms total)
T3FC8 18452:296 JLINK_ReadReg(R6)  returns 0x00000203 (0000ms, 9401ms total)
T3FC8 18452:296 JLINK_ReadReg(R7)  returns 0x00000000 (0000ms, 9401ms total)
T3FC8 18452:296 JLINK_ReadReg(R8)  returns 0x00000000 (0000ms, 9401ms total)
T3FC8 18452:296 JLINK_ReadReg(R9)  returns 0x20000160 (0000ms, 9401ms total)
T3FC8 18452:296 JLINK_ReadReg(R10)  returns 0x00000000 (0000ms, 9401ms total)
T3FC8 18452:296 JLINK_ReadReg(R11)  returns 0x00000000 (0000ms, 9401ms total)
T3FC8 18452:296 JLINK_ReadReg(R12)  returns 0x00000004 (0000ms, 9401ms total)
T3FC8 18452:296 JLINK_ReadReg(R13 (SP))  returns 0x20002570 (0000ms, 9401ms total)
T3FC8 18452:296 JLINK_ReadReg(R14)  returns 0x08005F6B (0000ms, 9401ms total)
T3FC8 18452:296 JLINK_ReadReg(R15 (PC))  returns 0x0800289C (0000ms, 9401ms total)
T3FC8 18452:296 JLINK_ReadReg(XPSR)  returns 0x61000000 (0000ms, 9401ms total)
T3FC8 18452:296 JLINK_ReadReg(MSP)  returns 0x20002570 (0000ms, 9401ms total)
T3FC8 18452:296 JLINK_ReadReg(PSP)  returns 0x20001000 (0000ms, 9401ms total)
T3FC8 18452:296 JLINK_ReadReg(CFBP)  returns 0x00000000 (0000ms, 9401ms total)
T0B38 18452:296 JLINK_ReadMemEx(0x2000258C, 0x0004 Bytes, ..., Flags = 0x02000000) -- Read from C cache (4 bytes @ 0x2000258C) - Data: 6B 5F 00 08  returns 0x04 (0000ms, 9401ms total)
T0B38 18452:296 JLINK_ReadMemEx(0x2000257C, 0x0004 Bytes, ..., Flags = 0x02000000) -- Read from C cache (4 bytes @ 0x2000257C) - Data: EC 5F 00 08  returns 0x04 (0000ms, 9401ms total)
T0B38 18452:296 JLINK_ReadMemEx(0x20002580, 0x0004 Bytes, ..., Flags = 0x02000000) -- Read from C cache (4 bytes @ 0x20002580) - Data: 00 00 00 00  returns 0x04 (0000ms, 9401ms total)
T0B38 18452:296 JLINK_ReadMemEx(0x20002584, 0x0004 Bytes, ..., Flags = 0x02000000) -- Read from C cache (4 bytes @ 0x20002584) - Data: 03 02 00 00  returns 0x04 (0000ms, 9401ms total)
T0B38 18452:296 JLINK_ReadMemEx(0x20002588, 0x0004 Bytes, ..., Flags = 0x02000000) -- Read from C cache (4 bytes @ 0x20002588) - Data: 00 00 00 00  returns 0x04 (0001ms, 9402ms total)
T0B38 18452:297 JLINK_ReadMemEx(0x20002574, 0x0004 Bytes, ..., Flags = 0x02000000) -- Read from C cache (4 bytes @ 0x20002574) - Data: 21 00 00 20  returns 0x04 (0000ms, 9402ms total)
T0B38 18452:297 JLINK_ReadMemEx(0x20000021, 0x0020 Bytes, ..., Flags = 0x02000000) -- Read from C cache (32 bytes @ 0x20000021) - Data: 68 65 6C 6C 6F 00 00 00 00 00 00 99 02 00 08 95 ...  returns 0x20 (0000ms, 9402ms total)
T0B38 18452:297 JLINK_ReadMemEx(0x00000000, 0x0004 Bytes, ..., Flags = 0x02000000) -- Read from C cache (4 bytes @ 0x08000000) - Data: 90 25 00 20  returns 0x04 (0000ms, 9402ms total)
T0B38 18452:297 JLINK_ReadMemEx(0x40010800, 0x000C Bytes, ..., Flags = 0x02000004) -- CPU_ReadMem(12 bytes @ 0x40010800) - Data: 24 4B 42 44 B4 44 84 88 AC 97 00 00  returns 0x0C (0000ms, 9402ms total)
T0B38 18452:297 JLINK_ReadMemEx(0x40010800, 0x0004 Bytes, ..., Flags = 0x02000004) -- CPU_ReadMem(4 bytes @ 0x40010800) - Data: 24 4B 42 44  returns 0x04 (0000ms, 9402ms total)
T0B38 18452:297 JLINK_ReadMemEx(0x40010804, 0x0004 Bytes, ..., Flags = 0x02000004) -- CPU_ReadMem(4 bytes @ 0x40010804) - Data: B4 44 84 88  returns 0x04 (0001ms, 9403ms total)
T0B38 18452:298 JLINK_ReadMemEx(0x40010808, 0x0004 Bytes, ..., Flags = 0x02000004) -- CPU_ReadMem(4 bytes @ 0x40010808) - Data: AC D7 00 00  returns 0x04 (0000ms, 9403ms total)
T0B38 18452:298 JLINK_ReadMemEx(0x4001080C, 0x0004 Bytes, ..., Flags = 0x02000004) -- CPU_ReadMem(4 bytes @ 0x4001080C) - Data: 00 A0 00 00  returns 0x04 (0000ms, 9403ms total)
T0B38 18452:298 JLINK_ReadMemEx(0x4001080C, 0x0004 Bytes, ..., Flags = 0x02000004) -- CPU_ReadMem(4 bytes @ 0x4001080C) - Data: 00 A0 00 00  returns 0x04 (0000ms, 9403ms total)
T0B38 18452:298 JLINK_ReadMemEx(0x40010818, 0x0004 Bytes, ..., Flags = 0x02000004) -- CPU_ReadMem(4 bytes @ 0x40010818) - Data: 00 00 00 00  returns 0x04 (0000ms, 9403ms total)
T0B38 18452:299 JLINK_ReadMemEx(0x40010818, 0x0004 Bytes, ..., Flags = 0x02000004) -- CPU_ReadMem(4 bytes @ 0x40010818) - Data: 00 00 00 00  returns 0x04 (0000ms, 9404ms total)
T0B38 18452:299 JLINK_ReadMemEx(0x0800289C, 0x003C Bytes, ..., Flags = 0x02000000) -- Read from C cache (60 bytes @ 0x0800289C) - Data: 00 BF 94 F8 38 00 01 28 01 D1 02 20 F7 E7 01 20 ...  returns 0x3C (0000ms, 9404ms total)
T3FC8 18453:060 JLINK_ReadMemEx(0x0800289C, 0x0002 Bytes, ..., Flags = 0x02000000) -- Read from C cache (2 bytes @ 0x0800289C) - Data: 00 BF  returns 0x02 (0000ms, 9404ms total)
T3FC8 18453:060 JLINK_Step() -- Read from C cache (2 bytes @ 0x0800289C) -- Simulated  returns 0x00 (0000ms, 9404ms total)
T3FC8 18453:060 JLINK_ReadReg(R15 (PC))  returns 0x0800289E (0000ms, 9404ms total)
T3FC8 18453:060 JLINK_ReadReg(XPSR)  returns 0x61000000 (0000ms, 9404ms total)
T3FC8 18453:060 JLINK_ReadReg(R0)  returns 0x20000021 (0000ms, 9404ms total)
T3FC8 18453:060 JLINK_ReadReg(R1)  returns 0x20000021 (0000ms, 9404ms total)
T3FC8 18453:061 JLINK_ReadReg(R2)  returns 0x00000006 (0000ms, 9405ms total)
T3FC8 18453:061 JLINK_ReadReg(R3)  returns 0x00000080 (0000ms, 9405ms total)
T3FC8 18453:061 JLINK_ReadReg(R4)  returns 0x200007AC (0000ms, 9405ms total)
T3FC8 18453:061 JLINK_ReadReg(R5)  returns 0x00000006 (0000ms, 9405ms total)
T3FC8 18453:061 JLINK_ReadReg(R6)  returns 0x00000203 (0000ms, 9405ms total)
T3FC8 18453:061 JLINK_ReadReg(R7)  returns 0x00000000 (0000ms, 9405ms total)
T3FC8 18453:061 JLINK_ReadReg(R8)  returns 0x00000000 (0000ms, 9405ms total)
T3FC8 18453:061 JLINK_ReadReg(R9)  returns 0x20000160 (0000ms, 9405ms total)
T3FC8 18453:061 JLINK_ReadReg(R10)  returns 0x00000000 (0000ms, 9405ms total)
T3FC8 18453:061 JLINK_ReadReg(R11)  returns 0x00000000 (0000ms, 9405ms total)
T3FC8 18453:061 JLINK_ReadReg(R12)  returns 0x00000004 (0000ms, 9405ms total)
T3FC8 18453:061 JLINK_ReadReg(R13 (SP))  returns 0x20002570 (0000ms, 9405ms total)
T3FC8 18453:061 JLINK_ReadReg(R14)  returns 0x08005F6B (0000ms, 9405ms total)
T3FC8 18453:061 JLINK_ReadReg(R15 (PC))  returns 0x0800289E (0000ms, 9405ms total)
T3FC8 18453:061 JLINK_ReadReg(XPSR)  returns 0x61000000 (0000ms, 9405ms total)
T3FC8 18453:061 JLINK_ReadReg(MSP)  returns 0x20002570 (0000ms, 9405ms total)
T3FC8 18453:061 JLINK_ReadReg(PSP)  returns 0x20001000 (0000ms, 9405ms total)
T3FC8 18453:061 JLINK_ReadReg(CFBP)  returns 0x00000000 (0000ms, 9405ms total)
T0B38 18453:061 JLINK_ReadMemEx(0x2000258C, 0x0004 Bytes, ..., Flags = 0x02000000) -- Read from C cache (4 bytes @ 0x2000258C) - Data: 6B 5F 00 08  returns 0x04 (0000ms, 9405ms total)
T0B38 18453:061 JLINK_ReadMemEx(0x2000257C, 0x0004 Bytes, ..., Flags = 0x02000000) -- Read from C cache (4 bytes @ 0x2000257C) - Data: EC 5F 00 08  returns 0x04 (0000ms, 9405ms total)
T0B38 18453:062 JLINK_ReadMemEx(0x20002580, 0x0004 Bytes, ..., Flags = 0x02000000) -- Read from C cache (4 bytes @ 0x20002580) - Data: 00 00 00 00  returns 0x04 (0000ms, 9405ms total)
T0B38 18453:062 JLINK_ReadMemEx(0x20002584, 0x0004 Bytes, ..., Flags = 0x02000000) -- Read from C cache (4 bytes @ 0x20002584) - Data: 03 02 00 00  returns 0x04 (0000ms, 9405ms total)
T0B38 18453:062 JLINK_ReadMemEx(0x20002588, 0x0004 Bytes, ..., Flags = 0x02000000) -- Read from C cache (4 bytes @ 0x20002588) - Data: 00 00 00 00  returns 0x04 (0000ms, 9405ms total)
T0B38 18453:062 JLINK_ReadMemEx(0x20002574, 0x0004 Bytes, ..., Flags = 0x02000000) -- Read from C cache (4 bytes @ 0x20002574) - Data: 21 00 00 20  returns 0x04 (0000ms, 9405ms total)
T0B38 18453:062 JLINK_ReadMemEx(0x20000021, 0x0020 Bytes, ..., Flags = 0x02000000) -- Read from C cache (32 bytes @ 0x20000021) - Data: 68 65 6C 6C 6F 00 00 00 00 00 00 99 02 00 08 95 ...  returns 0x20 (0000ms, 9405ms total)
T0B38 18453:062 JLINK_ReadMemEx(0x00000000, 0x0004 Bytes, ..., Flags = 0x02000000) -- Read from C cache (4 bytes @ 0x08000000) - Data: 90 25 00 20  returns 0x04 (0000ms, 9405ms total)
T0B38 18453:062 JLINK_ReadMemEx(0x40010800, 0x000C Bytes, ..., Flags = 0x02000004) -- CPU_ReadMem(12 bytes @ 0x40010800) - Data: 24 4B 42 44 B4 44 84 88 AC D7 00 00  returns 0x0C (0000ms, 9405ms total)
T0B38 18453:062 JLINK_ReadMemEx(0x40010800, 0x0004 Bytes, ..., Flags = 0x02000004) -- CPU_ReadMem(4 bytes @ 0x40010800) - Data: 24 4B 42 44  returns 0x04 (0000ms, 9405ms total)
T0B38 18453:062 JLINK_ReadMemEx(0x40010804, 0x0004 Bytes, ..., Flags = 0x02000004) -- CPU_ReadMem(4 bytes @ 0x40010804) - Data: B4 44 84 88  returns 0x04 (0001ms, 9406ms total)
T0B38 18453:063 JLINK_ReadMemEx(0x40010808, 0x0004 Bytes, ..., Flags = 0x02000004) -- CPU_ReadMem(4 bytes @ 0x40010808) - Data: AC 97 00 00  returns 0x04 (0000ms, 9406ms total)
T0B38 18453:063 JLINK_ReadMemEx(0x4001080C, 0x0004 Bytes, ..., Flags = 0x02000004) -- CPU_ReadMem(4 bytes @ 0x4001080C) - Data: 00 A0 00 00  returns 0x04 (0000ms, 9406ms total)
T0B38 18453:063 JLINK_ReadMemEx(0x4001080C, 0x0004 Bytes, ..., Flags = 0x02000004) -- CPU_ReadMem(4 bytes @ 0x4001080C) - Data: 00 A0 00 00  returns 0x04 (0000ms, 9406ms total)
T0B38 18453:063 JLINK_ReadMemEx(0x40010818, 0x0004 Bytes, ..., Flags = 0x02000004) -- CPU_ReadMem(4 bytes @ 0x40010818) - Data: 00 00 00 00  returns 0x04 (0001ms, 9407ms total)
T0B38 18453:064 JLINK_ReadMemEx(0x40010818, 0x0004 Bytes, ..., Flags = 0x02000004) -- CPU_ReadMem(4 bytes @ 0x40010818) - Data: 00 00 00 00  returns 0x04 (0000ms, 9407ms total)
T0B38 18453:067 JLINK_ReadMemEx(0x0800289E, 0x0002 Bytes, ..., Flags = 0x02000000) -- Read from C cache (2 bytes @ 0x0800289E) - Data: 94 F8  returns 0x02 (0000ms, 9407ms total)
T0B38 18453:067 JLINK_ReadMemEx(0x080028A0, 0x003C Bytes, ..., Flags = 0x02000000) -- Read from C cache (60 bytes @ 0x080028A0) - Data: 38 00 01 28 01 D1 02 20 F7 E7 01 20 84 F8 38 00 ...  returns 0x3C (0000ms, 9407ms total)
T3FC8 18453:637 JLINK_ReadMemEx(0x0800289E, 0x0002 Bytes, ..., Flags = 0x02000000) -- Read from C cache (2 bytes @ 0x0800289E) - Data: 94 F8  returns 0x02 (0000ms, 9407ms total)
T3FC8 18453:637 JLINK_Step() -- Read from C cache (2 bytes @ 0x0800289E) -- Read from C cache (2 bytes @ 0x080028A0) -- Not simulated -- CPU_WriteMem(4 bytes @ 0xE0001004)  returns 0x00 (0002ms, 9409ms total)
T3FC8 18453:639 JLINK_ReadReg(R15 (PC))  returns 0x080028A2 (0000ms, 9409ms total)
T3FC8 18453:639 JLINK_ReadReg(XPSR)  returns 0x61000000 (0000ms, 9409ms total)
